
T0B58 000:689 SEGGER J-Link V4.15n (beta) Log File (0001ms, 0686ms total)
T0B58 000:689 DLL Compiled: Jun 18 2010 19:55:09 (0001ms, 0686ms total)
T0B58 000:689 Logging started @ 2012-10-19 17:31 (0001ms, 0686ms total)
T0B58 000:690 JLINK_SetWarnOutHandler(...) (0000ms, 0687ms total)
T0B58 000:690 JLINK_OpenEx(...)
Firmware: J-Link ARM V7 compiled Jun 30 2009 11:05:27
Hardware: V7.00
S/N: 11111117
Feature(s): RDI, FlashBP, FlashDL, JFlash, GDBFull  returns O.K. (0087ms, 0687ms total)
T0B58 000:777 JLINK_SetErrorOutHandler(...) (0000ms, 0774ms total)
T0B58 000:779 JLINK_ExecCommand("ProjectFile = "F:\ljg\soft\制氧机\空调控制器\JLinkSettings.ini"", ...)  returns 0x00 (0000ms, 0774ms total)
T0B58 000:780 JLINK_ExecCommand("DisableConnectionTimeout", ...)  returns 0x00 (0000ms, 0774ms total)
T0B58 000:783 JLINK_TIF_Select(JLINKARM_TIF_SWD)  returns 0x00 (0003ms, 0774ms total)
T0B58 000:786 JLINK_SetSpeed(10000) (0003ms, 0777ms total)
T0B58 000:789 JLINK_GetHardwareVersion()  returns 0x11170 (0000ms, 0780ms total)
T0B58 000:789 JLINK_GetDLLVersion()  returns 41514 (0000ms, 0780ms total)
T0B58 000:789 JLINK_GetFirmwareString(...) (0000ms, 0780ms total)
T0B58 000:789 JLINK_GetDLLVersion()  returns 41514 (0000ms, 0780ms total)
T0B58 000:789 JLINK_GetCompileDateTime() (0000ms, 0780ms total)
T0B58 000:789 JLINK_GetFirmwareString(...) (0000ms, 0780ms total)
T0B58 000:789 JLINK_GetHardwareVersion()  returns 0x11170 (0000ms, 0780ms total)
T0B58 000:789 JLINK_Reset() >0x108 TIF>Found SWD-DP with ID 0x0BB11477 >0x33 TIF> >0x33 TIF> >0x35 TIF> >0x33 TIF> >0x35 TIF> >0x33 TIF> >0x33 TIF> >0x9B TIF> >0x9B TIF> >0x1D7 TIF> >0x13A TIF> >0x13A TIF> >0x13A TIF> >0x13A TIF>  FPUnit: 4 code (BP) slots and 0 literal slots >0x13A TIF> -- CPU_WriteMem(4 bytes @ 0xE000EDFC) -- CPU_WriteMem(4 bytes @ 0xE000EDFC) -- CPU_WriteMem(4 bytes @ 0xE000EDFC) -- CPU_WriteMem(4 bytes @ 0xE0001020) -- CPU_WriteMem(4 bytes @ 0xE0001024)
 -- CPU_WriteMem(4 bytes @ 0xE0001028) -- CPU_WriteMem(4 bytes @ 0xE000EDFC) -- CPU_WriteMem(4 bytes @ 0xE0001028) -- CPU_ReadMem(4 bytes @ 0x00000000) -- CPU_ReadMem(4 bytes @ 0x00000004) (0164ms, 0780ms total)
T0B58 000:953 JLINK_JTAG_StoreRaw(..., 0x108 Bits)  returns 0x00 (0000ms, 0944ms total)
T0B58 000:953 JLINK_JTAG_GetU32(BitPos = 227) >0x108 TIF>  returns 0x0BB11477 (0001ms, 0944ms total)
T0B58 000:954 JLINK_GetDebugInfo(0x100) -- Value=0xE00FF003  returns 0x00 (0000ms, 0945ms total)
T0B58 000:954 JLINK_ReadMem (0xE00FF000, 0x0018 Bytes, ...) -- CPU_ReadMem(24 bytes @ 0xE00FF000) -- Data:  03 F0 F0 FF 03 20 F0 FF 03 30 F0 FF 00 00 00 00 ...  returns 0x00 (0002ms, 0945ms total)
T0B58 000:956 JLINK_ReadMemU32(0xE000ED00, 0x0001 Items, ...) -- CPU_ReadMem(4 bytes @ 0xE000ED00) -- Data:  00 C2 0C 41  returns 0x01 (0002ms, 0947ms total)
T0B58 000:958 JLINK_Halt()  returns 0x00 (0000ms, 0949ms total)
T0B58 000:958 JLINK_IsHalted()  returns TRUE (0001ms, 0949ms total)
T0B58 000:959 JLINK_ReadMemU32(0xE000EDF0, 0x0001 Items, ...) -- CPU_ReadMem(4 bytes @ 0xE000EDF0) -- Data:  03 00 03 00  returns 0x01 (0001ms, 0949ms total)
T0B58 000:960 JLINK_WriteU32(0xE000EDF0, 0xA05F0003) -- CPU_WriteMem(4 bytes @ 0xE000EDF0)  returns 0x00 (0001ms, 0950ms total)
T0B58 000:961 JLINK_WriteU32(0xE000EDFC, 0x01000000) -- CPU_WriteMem(4 bytes @ 0xE000EDFC)  returns 0x00 (0001ms, 0951ms total)
T0B58 000:962 JLINK_ReadMemU32(0xE0002000, 0x0001 Items, ...) -- CPU_ReadMem(4 bytes @ 0xE0002000) -- Data:  40 00 00 00  returns 0x01 (0002ms, 0952ms total)
T0B58 000:964 JLINK_ReadMemU32(0xE0001000, 0x0001 Items, ...) -- CPU_ReadMem(4 bytes @ 0xE0001000) -- Data:  00 00 00 20  returns 0x01 (0002ms, 0954ms total)
T0B58 000:966 JLINK_ExecCommand("Device = LPC11C14x301", ...)  returns 0x00 (0000ms, 0956ms total)
T0B58 000:966 JLINK_GetHWStatus(...)  returns 0x00 (0001ms, 0956ms total)
T0B58 000:967 JLINK_GetNumBPUnits(Type = 0xFFFFFF00)  returns 0x04 (0000ms, 0957ms total)
T0B58 000:967 JLINK_GetNumBPUnits(Type = 0xF0)  returns 0x800 (0000ms, 0957ms total)
T0B58 000:967 JLINK_GetNumWPUnits()  returns 0x02 (0000ms, 0957ms total)
T0B58 000:967 JLINK_GetSpeed()  returns 0x2580 (0001ms, 0957ms total)
T0B58 000:968 JLINK_ReadMemU32(0xE000E004, 0x0001 Items, ...) -- CPU_ReadMem(4 bytes @ 0xE000E004) -- Data:  00 00 00 00  returns 0x01 (0001ms, 0958ms total)
T0B58 000:969 JLINK_ReadReg(R15)  returns 0x00000404 (0000ms, 0959ms total)
T0B58 000:969 JLINK_ReadReg(XPSR)  returns 0x01000000 (0000ms, 0959ms total)
T0B58 001:004 JLINK_WriteMem(0x00000000, 0x1000 Bytes, ...) -- Data:  00 1B 00 10 05 04 00 00 09 04 00 00 0B 04 00 00 ... -- CPU_WriteMem(4096 bytes @ 0x00000000)  returns 0x1000 (0025ms, 0959ms total)
T0B58 001:114 JLINK_WriteMem(0x00001000, 0x1000 Bytes, ...) -- Data:  70 BD A8 07 80 0F 02 D0 62 B6 03 20 F8 E7 07 21 ... -- CPU_WriteMem(4096 bytes @ 0x00001000)  returns 0x1000 (0023ms, 0984ms total)
T0B58 001:225 JLINK_WriteMem(0x00002000, 0x1000 Bytes, ...) -- Data:  04 A8 01 73 00 7B 40 19 C5 B2 04 A8 45 73 FF F7 ... -- CPU_WriteMem(4096 bytes @ 0x00002000)  returns 0x1000 (0023ms, 1007ms total)
T0B58 001:330 JLINK_WriteMem(0x00003000, 0x0428 Bytes, ...) -- Data:  52 41 41 1A 00 D2 01 46 52 41 10 46 70 47 5D E0 ... -- CPU_WriteMem(1064 bytes @ 0x00003000)  returns 0x428 (0008ms, 1030ms total)
T0B58 001:425 JLINK_SetResetType(JLINKARM_RESET_TYPE_NORMAL)  returns JLINKARM_RESET_TYPE_NORMAL (0000ms, 1038ms total)
T0B58 001:425 JLINK_Reset() >0x108 TIF>Found SWD-DP with ID 0x0BB11477 >0x33 TIF> >0x33 TIF> >0x35 TIF> >0x33 TIF> >0x35 TIF> >0x33 TIF> >0x33 TIF> >0x9B TIF> >0x9B TIF> >0x1D7 TIF> >0x13A TIF> >0x13A TIF> >0x13A TIF> >0x13A TIF>  FPUnit: 4 code (BP) slots and 0 literal slots >0x13A TIF> -- CPU_WriteMem(4 bytes @ 0xE000EDFC) -- CPU_WriteMem(4 bytes @ 0xE000EDFC) -- CPU_WriteMem(4 bytes @ 0xE000EDFC) -- CPU_WriteMem(4 bytes @ 0xE0001020) -- CPU_WriteMem(4 bytes @ 0xE0001024)
 -- CPU_WriteMem(4 bytes @ 0xE0001028) -- CPU_WriteMem(4 bytes @ 0xE000EDFC) -- CPU_WriteMem(4 bytes @ 0xE0001028) -- CPU_ReadMem(4 bytes @ 0x00000000) -- CPU_ReadMem(4 bytes @ 0x00000004) (0163ms, 1038ms total)
T0B58 001:588 JLINK_ReadReg(R15)  returns 0x00000404 (0000ms, 1201ms total)
T0B58 001:588 JLINK_ReadReg(XPSR)  returns 0x01000000 (0000ms, 1201ms total)
T0B58 001:588 JLINK_ReadReg(R0)  returns 0x00000000 (0000ms, 1201ms total)
T0B58 001:588 JLINK_ReadReg(R1)  returns 0x00000001 (0000ms, 1201ms total)
T0B58 001:588 JLINK_ReadReg(R2)  returns 0x10001B00 (0000ms, 1201ms total)
T0B58 001:588 JLINK_ReadReg(R3)  returns 0x00000000 (0000ms, 1201ms total)
T0B58 001:588 JLINK_ReadReg(R4)  returns 0x40048000 (0000ms, 1201ms total)
T0B58 001:588 JLINK_ReadReg(R5)  returns 0x00000405 (0000ms, 1201ms total)
T0B58 001:588 JLINK_ReadReg(R6)  returns 0x00000005 (0000ms, 1201ms total)
T0B58 001:588 JLINK_ReadReg(R7)  returns 0x010BE000 (0000ms, 1201ms total)
T0B58 001:588 JLINK_ReadReg(R8)  returns 0x00000000 (0000ms, 1201ms total)
T0B58 001:588 JLINK_ReadReg(R9)  returns 0x1000017C (0000ms, 1201ms total)
T0B58 001:588 JLINK_ReadReg(R10)  returns 0x000033B8 (0000ms, 1201ms total)
T0B58 001:588 JLINK_ReadReg(R11)  returns 0x000033B8 (0000ms, 1201ms total)
T0B58 001:588 JLINK_ReadReg(R12)  returns 0x00000000 (0001ms, 1201ms total)
T0B58 001:589 JLINK_ReadReg(R13)  returns 0x10001B00 (0000ms, 1202ms total)
T0B58 001:589 JLINK_ReadReg(R14)  returns 0x1FFF10DB (0000ms, 1202ms total)
T0B58 001:589 JLINK_ReadReg(R15)  returns 0x00000404 (0000ms, 1202ms total)
T0B58 001:589 JLINK_ReadReg(XPSR)  returns 0x01000000 (0000ms, 1202ms total)
T0B58 001:589 JLINK_ReadReg(MSP)  returns 0x10001B00 (0000ms, 1202ms total)
T0B58 001:589 JLINK_ReadReg(PSP)  returns 0x10000800 (0000ms, 1202ms total)
T0B58 001:589 JLINK_ReadReg(CFBP)  returns 0x00000000 (0000ms, 1202ms total)
T0B58 001:589 JLINK_ReadMem (0x00000404, 0x003C Bytes, ...) -- CPU_ReadMem(64 bytes @ 0x00000400) -- Updating DA cache (64 bytes @ 0x00000400) -- Read from DA cache (60 bytes @ 0x00000404) -- Data:  08 48 00 47 FE E7 FE E7 FE E7 FE E7 FE E7 FE E7 ...  returns 0x00 (0002ms, 1202ms total)
T0B58 001:639 JLINK_ReadMem (0x00000000, 0x00F0 Bytes, ...) -- CPU_ReadMem(256 bytes @ 0x00000000) -- Updating DA cache (256 bytes @ 0x00000000) -- Read from DA cache (240 bytes @ 0x00000000) -- Data:  00 1B 00 10 05 04 00 00 09 04 00 00 0B 04 00 00 ...  returns 0x00 (0003ms, 1204ms total)
T0D08 001:696 JLINK_SetBPEx(Addr = 0x00001AC0, Type = 0xFFFFFFF2)  returns 0x00000001 (0000ms, 1207ms total)
T0D08 001:696 JLINK_SetBPEx(Addr = 0x000011A4, Type = 0xFFFFFFF2)  returns 0x00000002 (0000ms, 1207ms total)
T0D08 001:696 JLINK_SetBPEx(Addr = 0x00001864, Type = 0xFFFFFFF2)  returns 0x00000003 (0000ms, 1207ms total)
T0D08 001:696 JLINK_Go() -- CPU_WriteMem(4 bytes @ 0xE0002000) -- CPU_WriteMem(4 bytes @ 0xE0002008) -- CPU_WriteMem(4 bytes @ 0xE000200C) -- CPU_WriteMem(4 bytes @ 0xE0002010) -- CPU_WriteMem(4 bytes @ 0xE0002014) (0007ms, 1207ms total)
T0D08 001:803 JLINK_IsHalted()  returns TRUE (0003ms, 1214ms total)
T0D08 001:806 JLINK_Halt()  returns 0x00 (0000ms, 1214ms total)
T0D08 001:806 JLINK_IsHalted()  returns TRUE (0000ms, 1214ms total)
T0D08 001:806 JLINK_IsHalted()  returns TRUE (0000ms, 1214ms total)
T0D08 001:806 JLINK_IsHalted()  returns TRUE (0000ms, 1214ms total)
T0D08 001:806 JLINK_ReadReg(R15)  returns 0x00001AC0 (0000ms, 1214ms total)
T0D08 001:806 JLINK_ReadReg(XPSR)  returns 0x21000000 (0000ms, 1214ms total)
T0D08 001:806 JLINK_ClrBPEx(BPHandle = 0x00000001)  returns 0x00 (0000ms, 1214ms total)
T0D08 001:806 JLINK_ClrBPEx(BPHandle = 0x00000002)  returns 0x00 (0000ms, 1214ms total)
T0D08 001:806 JLINK_ClrBPEx(BPHandle = 0x00000003)  returns 0x00 (0000ms, 1214ms total)
T0D08 001:806 JLINK_ReadMemU32(0xE000ED30, 0x0001 Items, ...) -- CPU_ReadMem(4 bytes @ 0xE000ED30) -- Data:  0F 00 00 00  returns 0x01 (0002ms, 1214ms total)
T0D08 001:808 JLINK_ReadMemU32(0xE0001028, 0x0001 Items, ...) -- CPU_ReadMem(4 bytes @ 0xE0001028) -- Data:  00 00 00 01  returns 0x01 (0002ms, 1216ms total)
T0D08 001:810 JLINK_ReadMemU32(0xE0001038, 0x0001 Items, ...) -- CPU_ReadMem(4 bytes @ 0xE0001038) -- Data:  00 00 00 00  returns 0x01 (0002ms, 1218ms total)
T0D08 001:812 JLINK_ReadReg(R0)  returns 0x10000800 (0000ms, 1220ms total)
T0D08 001:812 JLINK_ReadReg(R1)  returns 0x10001900 (0000ms, 1220ms total)
T0D08 001:812 JLINK_ReadReg(R2)  returns 0x10001900 (0000ms, 1220ms total)
T0D08 001:812 JLINK_ReadReg(R3)  returns 0x10001900 (0000ms, 1220ms total)
T0D08 001:812 JLINK_ReadReg(R4)  returns 0x000033B8 (0001ms, 1220ms total)
T0D08 001:813 JLINK_ReadReg(R5)  returns 0x1000079C (0000ms, 1221ms total)
T0D08 001:813 JLINK_ReadReg(R6)  returns 0x00000000 (0000ms, 1221ms total)
T0D08 001:813 JLINK_ReadReg(R7)  returns 0x00000000 (0000ms, 1221ms total)
T0D08 001:813 JLINK_ReadReg(R8)  returns 0x00000000 (0000ms, 1221ms total)
T0D08 001:813 JLINK_ReadReg(R9)  returns 0x1000017C (0000ms, 1221ms total)
T0D08 001:813 JLINK_ReadReg(R10)  returns 0x000033B8 (0000ms, 1221ms total)
T0D08 001:813 JLINK_ReadReg(R11)  returns 0x000033B8 (0000ms, 1221ms total)
T0D08 001:813 JLINK_ReadReg(R12)  returns 0x00000000 (0000ms, 1221ms total)
T0D08 001:813 JLINK_ReadReg(R13)  returns 0x10001B00 (0000ms, 1221ms total)
T0D08 001:813 JLINK_ReadReg(R14)  returns 0x0000015F (0000ms, 1221ms total)
T0D08 001:813 JLINK_ReadReg(R15)  returns 0x00001AC0 (0000ms, 1221ms total)
T0D08 001:813 JLINK_ReadReg(XPSR)  returns 0x21000000 (0000ms, 1221ms total)
T0D08 001:813 JLINK_ReadReg(MSP)  returns 0x10001B00 (0000ms, 1221ms total)
T0D08 001:813 JLINK_ReadReg(PSP)  returns 0x10000800 (0000ms, 1221ms total)
T0D08 001:813 JLINK_ReadReg(CFBP)  returns 0x00000000 (0000ms, 1221ms total)
T0B58 001:837 JLINK_ReadMem (0x10001AFC, 0x0001 Bytes, ...) -- CPU_ReadMem(1 bytes @ 0x10001AFC) -- Data:  5B  returns 0x00 (0002ms, 1221ms total)
T0B58 001:840 JLINK_ReadMem (0x10001AF8, 0x0004 Bytes, ...) -- CPU_ReadMem(4 bytes @ 0x10001AF8) -- Data:  B8 33 00 00  returns 0x00 (0002ms, 1223ms total)
T0B58 001:842 JLINK_ReadMem (0x10001AF4, 0x0002 Bytes, ...) -- CPU_ReadMem(2 bytes @ 0x10001AF4) -- Data:  00 19  returns 0x00 (0002ms, 1225ms total)
T0B58 001:845 JLINK_ReadMem (0x10001AF0, 0x0001 Bytes, ...) -- CPU_ReadMem(1 bytes @ 0x10001AF0) -- Data:  00  returns 0x00 (0001ms, 1227ms total)
T0B58 001:972 JLINK_ReadMem (0x00000404, 0x003C Bytes, ...) -- CPU_ReadMem(64 bytes @ 0x00000400) -- Updating DA cache (64 bytes @ 0x00000400) -- Read from DA cache (60 bytes @ 0x00000404) -- Data:  08 48 00 47 FE E7 FE E7 FE E7 FE E7 FE E7 FE E7 ...  returns 0x00 (0003ms, 1228ms total)
T0B58 002:234 JLINK_ReadMem (0x00001AC0, 0x003C Bytes, ...) -- CPU_ReadMem(64 bytes @ 0x00001AC0) -- Updating DA cache (64 bytes @ 0x00001AC0) -- Read from DA cache (60 bytes @ 0x00001AC0) -- Data:  96 B0 00 20 14 90 00 24 00 BF 00 BF 00 BF 12 90 ...  returns 0x00 (0004ms, 1231ms total)
T0D08 003:597 JLINK_SetBPEx(Addr = 0x000011A4, Type = 0xFFFFFFF2)  returns 0x00000004 (0001ms, 1235ms total)
T0D08 003:598 JLINK_SetBPEx(Addr = 0x00001864, Type = 0xFFFFFFF2)  returns 0x00000005 (0000ms, 1236ms total)
T0D08 003:598 JLINK_Go() -- CPU_WriteMem(4 bytes @ 0xE000200C) -- CPU_WriteMem(4 bytes @ 0xE0002008) -- CPU_WriteMem(4 bytes @ 0xE0002010) -- CPU_WriteMem(4 bytes @ 0xE000200C) -- CPU_WriteMem(4 bytes @ 0xE0002008) -- CPU_WriteMem(4 bytes @ 0xE000200C) -- CPU_WriteMem(4 bytes @ 0xE0002010) -- CPU_WriteMem(4 bytes @ 0xE0002014) (0010ms, 1236ms total)
T0D08 003:708 JLINK_IsHalted()  returns FALSE (0001ms, 1246ms total)
T0D08 003:810 JLINK_IsHalted()  returns FALSE (0001ms, 1246ms total)
T0D08 003:911 JLINK_IsHalted()  returns TRUE (0004ms, 1246ms total)
T0D08 003:916 JLINK_Halt()  returns 0x00 (0000ms, 1246ms total)
T0D08 003:916 JLINK_IsHalted()  returns TRUE (0000ms, 1246ms total)
T0D08 003:916 JLINK_IsHalted()  returns TRUE (0000ms, 1246ms total)
T0D08 003:916 JLINK_IsHalted()  returns TRUE (0000ms, 1246ms total)
T0D08 003:916 JLINK_ReadReg(R15)  returns 0x00001864 (0000ms, 1246ms total)
T0D08 003:916 JLINK_ReadReg(XPSR)  returns 0x81000000 (0000ms, 1246ms total)
T0D08 003:916 JLINK_ClrBPEx(BPHandle = 0x00000004)  returns 0x00 (0000ms, 1246ms total)
T0D08 003:916 JLINK_ClrBPEx(BPHandle = 0x00000005)  returns 0x00 (0000ms, 1246ms total)
T0D08 003:916 JLINK_ReadMemU32(0xE000ED30, 0x0001 Items, ...) -- CPU_ReadMem(4 bytes @ 0xE000ED30) -- Data:  0F 00 00 00  returns 0x01 (0002ms, 1246ms total)
T0D08 003:918 JLINK_ReadMemU32(0xE0001028, 0x0001 Items, ...) -- CPU_ReadMem(4 bytes @ 0xE0001028) -- Data:  00 00 00 00  returns 0x01 (0002ms, 1248ms total)
T0D08 003:920 JLINK_ReadMemU32(0xE0001038, 0x0001 Items, ...) -- CPU_ReadMem(4 bytes @ 0xE0001038) -- Data:  00 00 00 00  returns 0x01 (0002ms, 1250ms total)
T0D08 003:922 JLINK_ReadReg(R0)  returns 0x00000001 (0000ms, 1252ms total)
T0D08 003:922 JLINK_ReadReg(R1)  returns 0x00000000 (0000ms, 1252ms total)
T0D08 003:922 JLINK_ReadReg(R2)  returns 0x00000005 (0000ms, 1252ms total)
T0D08 003:922 JLINK_ReadReg(R3)  returns 0x00000000 (0000ms, 1252ms total)
T0D08 003:922 JLINK_ReadReg(R4)  returns 0x00000000 (0000ms, 1252ms total)
T0D08 003:922 JLINK_ReadReg(R5)  returns 0x1000079C (0000ms, 1252ms total)
T0D08 003:922 JLINK_ReadReg(R6)  returns 0x00000000 (0000ms, 1252ms total)
T0D08 003:922 JLINK_ReadReg(R7)  returns 0x00000000 (0000ms, 1252ms total)
T0D08 003:922 JLINK_ReadReg(R8)  returns 0x00000000 (0000ms, 1252ms total)
T0D08 003:922 JLINK_ReadReg(R9)  returns 0x1000017C (0000ms, 1252ms total)
T0D08 003:922 JLINK_ReadReg(R10)  returns 0x000033B8 (0000ms, 1252ms total)
T0D08 003:922 JLINK_ReadReg(R11)  returns 0x000033B8 (0000ms, 1252ms total)
T0D08 003:922 JLINK_ReadReg(R12)  returns 0x00000000 (0000ms, 1252ms total)
T0D08 003:922 JLINK_ReadReg(R13)  returns 0x10001A98 (0000ms, 1252ms total)
T0D08 003:922 JLINK_ReadReg(R14)  returns 0x00001F6B (0000ms, 1252ms total)
T0D08 003:922 JLINK_ReadReg(R15)  returns 0x00001864 (0000ms, 1252ms total)
T0D08 003:922 JLINK_ReadReg(XPSR)  returns 0x81000000 (0000ms, 1252ms total)
T0D08 003:922 JLINK_ReadReg(MSP)  returns 0x10001A98 (0000ms, 1252ms total)
T0D08 003:922 JLINK_ReadReg(PSP)  returns 0x10000800 (0000ms, 1252ms total)
T0D08 003:922 JLINK_ReadReg(CFBP)  returns 0x00000000 (0000ms, 1252ms total)
T0D08 003:922 JLINK_ReadMem (0x10001AA4, 0x0004 Bytes, ...) -- CPU_ReadMem(4 bytes @ 0x10001AA4) -- Data:  6B 1F 00 00  returns 0x00 (0003ms, 1252ms total)
T0B58 003:925 JLINK_ReadMem (0x10000049, 0x0001 Bytes, ...) -- CPU_ReadMem(1 bytes @ 0x10000049) -- Data:  FF  returns 0x00 (0003ms, 1255ms total)
T0B58 003:986 JLINK_ReadMem (0x00001864, 0x003C Bytes, ...) -- CPU_ReadMem(128 bytes @ 0x00001840) -- Updating DA cache (128 bytes @ 0x00001840) -- Read from DA cache (60 bytes @ 0x00001864) -- Data:  00 26 23 46 01 F0 28 FD 06 04 0A 10 16 1C 23 28 ...  returns 0x00 (0003ms, 1258ms total)
T0D08 016:744 JLINK_Step() -- Read from DA cache (2 bytes @ 0x00001864) -- Simulated  returns 0x00 (0001ms, 1261ms total)
T0D08 016:745 JLINK_ReadReg(R15)  returns 0x00001866 (0000ms, 1262ms total)
T0D08 016:745 JLINK_ReadReg(XPSR)  returns 0x41000000 (0000ms, 1262ms total)
T0D08 016:746 JLINK_ReadReg(R0)  returns 0x00000001 (0000ms, 1262ms total)
T0D08 016:746 JLINK_ReadReg(R1)  returns 0x00000000 (0000ms, 1262ms total)
T0D08 016:746 JLINK_ReadReg(R2)  returns 0x00000005 (0000ms, 1262ms total)
T0D08 016:746 JLINK_ReadReg(R3)  returns 0x00000000 (0000ms, 1262ms total)
T0D08 016:746 JLINK_ReadReg(R4)  returns 0x00000000 (0000ms, 1262ms total)
T0D08 016:746 JLINK_ReadReg(R5)  returns 0x1000079C (0000ms, 1262ms total)
T0D08 016:746 JLINK_ReadReg(R6)  returns 0x00000000 (0000ms, 1262ms total)
T0D08 016:746 JLINK_ReadReg(R7)  returns 0x00000000 (0000ms, 1262ms total)
T0D08 016:746 JLINK_ReadReg(R8)  returns 0x00000000 (0000ms, 1262ms total)
T0D08 016:746 JLINK_ReadReg(R9)  returns 0x1000017C (0000ms, 1262ms total)
T0D08 016:746 JLINK_ReadReg(R10)  returns 0x000033B8 (0000ms, 1262ms total)
T0D08 016:746 JLINK_ReadReg(R11)  returns 0x000033B8 (0000ms, 1262ms total)
T0D08 016:746 JLINK_ReadReg(R12)  returns 0x00000000 (0000ms, 1262ms total)
T0D08 016:746 JLINK_ReadReg(R13)  returns 0x10001A98 (0000ms, 1262ms total)
T0D08 016:746 JLINK_ReadReg(R14)  returns 0x00001F6B (0000ms, 1262ms total)
T0D08 016:746 JLINK_ReadReg(R15)  returns 0x00001866 (0000ms, 1262ms total)
T0D08 016:746 JLINK_ReadReg(XPSR)  returns 0x41000000 (0000ms, 1262ms total)
T0D08 016:746 JLINK_ReadReg(MSP)  returns 0x10001A98 (0000ms, 1262ms total)
T0D08 016:746 JLINK_ReadReg(PSP)  returns 0x10000800 (0000ms, 1262ms total)
T0D08 016:746 JLINK_ReadReg(CFBP)  returns 0x00000000 (0000ms, 1262ms total)
T0D08 016:746 JLINK_ReadMem (0x10001AA4, 0x0004 Bytes, ...) -- CPU_ReadMem(4 bytes @ 0x10001AA4) -- Data:  6B 1F 00 00  returns 0x00 (0002ms, 1262ms total)
T0B58 016:749 JLINK_ReadMem (0x10000049, 0x0001 Bytes, ...) -- CPU_ReadMem(1 bytes @ 0x10000049) -- Data:  FF  returns 0x00 (0001ms, 1264ms total)
T0B58 016:796 JLINK_ReadMem (0x00001866, 0x0002 Bytes, ...) -- Read from DA cache (2 bytes @ 0x00001866) -- Data:  23 46  returns 0x00 (0000ms, 1265ms total)
T0B58 016:796 JLINK_ReadMem (0x00001868, 0x003C Bytes, ...) -- Read from DA cache (60 bytes @ 0x00001868) -- Data:  01 F0 28 FD 06 04 0A 10 16 1C 23 28 5C 48 C0 6B ...  returns 0x00 (0000ms, 1265ms total)
T0D08 017:200 JLINK_Step() -- Read from DA cache (2 bytes @ 0x00001866) -- Not simulated -- CPU_WriteMem(4 bytes @ 0xE0002008) -- CPU_WriteMem(4 bytes @ 0xE000200C) -- CPU_WriteMem(4 bytes @ 0xE0002010) -- CPU_WriteMem(4 bytes @ 0xE0002014)  returns 0x00 (0009ms, 1265ms total)
T0D08 017:209 JLINK_ReadReg(R15)  returns 0x00001868 (0000ms, 1274ms total)
T0D08 017:209 JLINK_ReadReg(XPSR)  returns 0x41000000 (0000ms, 1274ms total)
T0D08 017:210 JLINK_SetBPEx(Addr = 0x0000186C, Type = 0xFFFFFFF2)  returns 0x00000006 (0000ms, 1274ms total)
T0D08 017:210 JLINK_SetBPEx(Addr = 0x000011A4, Type = 0xFFFFFFF2)  returns 0x00000007 (0000ms, 1274ms total)
T0D08 017:210 JLINK_SetBPEx(Addr = 0x00001864, Type = 0xFFFFFFF2)  returns 0x00000008 (0000ms, 1274ms total)
T0D08 017:210 JLINK_Go() -- CPU_WriteMem(4 bytes @ 0xE0002008) -- CPU_WriteMem(4 bytes @ 0xE000200C) -- CPU_WriteMem(4 bytes @ 0xE0002010) -- CPU_WriteMem(4 bytes @ 0xE0002014) (0004ms, 1274ms total)
T0D08 017:315 JLINK_IsHalted()  returns TRUE (0005ms, 1278ms total)
T0D08 017:320 JLINK_Halt()  returns 0x00 (0000ms, 1278ms total)
T0D08 017:320 JLINK_IsHalted()  returns TRUE (0000ms, 1278ms total)
T0D08 017:320 JLINK_IsHalted()  returns TRUE (0000ms, 1278ms total)
T0D08 017:320 JLINK_IsHalted()  returns TRUE (0000ms, 1278ms total)
T0D08 017:320 JLINK_ReadReg(R15)  returns 0x00001864 (0000ms, 1278ms total)
T0D08 017:320 JLINK_ReadReg(XPSR)  returns 0x81000000 (0000ms, 1278ms total)
T0D08 017:320 JLINK_ClrBPEx(BPHandle = 0x00000006)  returns 0x00 (0000ms, 1278ms total)
T0D08 017:320 JLINK_ClrBPEx(BPHandle = 0x00000007)  returns 0x00 (0000ms, 1278ms total)
T0D08 017:320 JLINK_ClrBPEx(BPHandle = 0x00000008)  returns 0x00 (0000ms, 1278ms total)
T0D08 017:320 JLINK_ReadMemU32(0xE000ED30, 0x0001 Items, ...) -- CPU_ReadMem(4 bytes @ 0xE000ED30) -- Data:  0F 00 00 00  returns 0x01 (0002ms, 1278ms total)
T0D08 017:322 JLINK_ReadMemU32(0xE0001028, 0x0001 Items, ...) -- CPU_ReadMem(4 bytes @ 0xE0001028) -- Data:  00 00 00 00  returns 0x01 (0002ms, 1280ms total)
T0D08 017:324 JLINK_ReadMemU32(0xE0001038, 0x0001 Items, ...) -- CPU_ReadMem(4 bytes @ 0xE0001038) -- Data:  00 00 00 00  returns 0x01 (0002ms, 1282ms total)
T0D08 017:326 JLINK_ReadReg(R0)  returns 0x00000001 (0000ms, 1284ms total)
T0D08 017:326 JLINK_ReadReg(R1)  returns 0x1000004A (0000ms, 1284ms total)
T0D08 017:326 JLINK_ReadReg(R2)  returns 0x00000005 (0000ms, 1284ms total)
T0D08 017:326 JLINK_ReadReg(R3)  returns 0x00001875 (0000ms, 1284ms total)
T0D08 017:326 JLINK_ReadReg(R4)  returns 0x00000001 (0000ms, 1284ms total)
T0D08 017:326 JLINK_ReadReg(R5)  returns 0x00000010 (0000ms, 1284ms total)
T0D08 017:326 JLINK_ReadReg(R6)  returns 0x00000000 (0000ms, 1284ms total)
T0D08 017:326 JLINK_ReadReg(R7)  returns 0x00000000 (0000ms, 1284ms total)
T0D08 017:326 JLINK_ReadReg(R8)  returns 0x00000000 (0000ms, 1284ms total)
T0D08 017:326 JLINK_ReadReg(R9)  returns 0x1000017C (0000ms, 1284ms total)
T0D08 017:326 JLINK_ReadReg(R10)  returns 0x000033B8 (0001ms, 1284ms total)
T0D08 017:327 JLINK_ReadReg(R11)  returns 0x000033B8 (0000ms, 1285ms total)
T0D08 017:327 JLINK_ReadReg(R12)  returns 0x00000000 (0000ms, 1285ms total)
T0D08 017:327 JLINK_ReadReg(R13)  returns 0x10001A98 (0000ms, 1285ms total)
T0D08 017:327 JLINK_ReadReg(R14)  returns 0x0000186D (0000ms, 1285ms total)
T0D08 017:327 JLINK_ReadReg(R15)  returns 0x00001864 (0000ms, 1285ms total)
T0D08 017:327 JLINK_ReadReg(XPSR)  returns 0x81000000 (0000ms, 1285ms total)
T0D08 017:327 JLINK_ReadReg(MSP)  returns 0x10001A98 (0000ms, 1285ms total)
T0D08 017:327 JLINK_ReadReg(PSP)  returns 0x10000800 (0000ms, 1285ms total)
T0D08 017:327 JLINK_ReadReg(CFBP)  returns 0x00000000 (0000ms, 1285ms total)
T0D08 017:327 JLINK_ReadMem (0x10001AA4, 0x0004 Bytes, ...) -- CPU_ReadMem(4 bytes @ 0x10001AA4) -- Data:  6B 1F 00 00  returns 0x00 (0001ms, 1285ms total)
T0B58 017:329 JLINK_ReadMem (0x10000049, 0x0001 Bytes, ...) -- CPU_ReadMem(1 bytes @ 0x10000049) -- Data:  FF  returns 0x00 (0002ms, 1286ms total)
T0B58 017:377 JLINK_ReadMem (0x00001864, 0x003C Bytes, ...) -- CPU_ReadMem(128 bytes @ 0x00001840) -- Updating DA cache (128 bytes @ 0x00001840) -- Read from DA cache (60 bytes @ 0x00001864) -- Data:  00 26 23 46 01 F0 28 FD 06 04 0A 10 16 1C 23 28 ...  returns 0x00 (0002ms, 1288ms total)
T0D08 017:881 JLINK_Step() -- Read from DA cache (2 bytes @ 0x00001864) -- Simulated  returns 0x00 (0001ms, 1290ms total)
T0D08 017:882 JLINK_ReadReg(R15)  returns 0x00001866 (0000ms, 1291ms total)
T0D08 017:882 JLINK_ReadReg(XPSR)  returns 0x41000000 (0000ms, 1291ms total)
T0D08 017:883 JLINK_ReadReg(R0)  returns 0x00000001 (0000ms, 1291ms total)
T0D08 017:883 JLINK_ReadReg(R1)  returns 0x1000004A (0000ms, 1291ms total)
T0D08 017:883 JLINK_ReadReg(R2)  returns 0x00000005 (0000ms, 1291ms total)
T0D08 017:883 JLINK_ReadReg(R3)  returns 0x00001875 (0000ms, 1291ms total)
T0D08 017:883 JLINK_ReadReg(R4)  returns 0x00000001 (0000ms, 1291ms total)
T0D08 017:883 JLINK_ReadReg(R5)  returns 0x00000010 (0000ms, 1291ms total)
T0D08 017:883 JLINK_ReadReg(R6)  returns 0x00000000 (0000ms, 1291ms total)
T0D08 017:883 JLINK_ReadReg(R7)  returns 0x00000000 (0000ms, 1291ms total)
T0D08 017:883 JLINK_ReadReg(R8)  returns 0x00000000 (0000ms, 1291ms total)
T0D08 017:883 JLINK_ReadReg(R9)  returns 0x1000017C (0000ms, 1291ms total)
T0D08 017:883 JLINK_ReadReg(R10)  returns 0x000033B8 (0000ms, 1291ms total)
T0D08 017:883 JLINK_ReadReg(R11)  returns 0x000033B8 (0000ms, 1291ms total)
T0D08 017:883 JLINK_ReadReg(R12)  returns 0x00000000 (0000ms, 1291ms total)
T0D08 017:883 JLINK_ReadReg(R13)  returns 0x10001A98 (0000ms, 1291ms total)
T0D08 017:883 JLINK_ReadReg(R14)  returns 0x0000186D (0000ms, 1291ms total)
T0D08 017:883 JLINK_ReadReg(R15)  returns 0x00001866 (0000ms, 1291ms total)
T0D08 017:883 JLINK_ReadReg(XPSR)  returns 0x41000000 (0000ms, 1291ms total)
T0D08 017:883 JLINK_ReadReg(MSP)  returns 0x10001A98 (0000ms, 1291ms total)
T0D08 017:883 JLINK_ReadReg(PSP)  returns 0x10000800 (0000ms, 1291ms total)
T0D08 017:883 JLINK_ReadReg(CFBP)  returns 0x00000000 (0000ms, 1291ms total)
T0D08 017:883 JLINK_ReadMem (0x10001AA4, 0x0004 Bytes, ...) -- CPU_ReadMem(4 bytes @ 0x10001AA4) -- Data:  6B 1F 00 00  returns 0x00 (0002ms, 1291ms total)
T0B58 017:886 JLINK_ReadMem (0x10000049, 0x0001 Bytes, ...) -- CPU_ReadMem(1 bytes @ 0x10000049) -- Data:  FF  returns 0x00 (0002ms, 1294ms total)
T0B58 017:937 JLINK_ReadMem (0x00001866, 0x0002 Bytes, ...) -- Read from DA cache (2 bytes @ 0x00001866) -- Data:  23 46  returns 0x00 (0000ms, 1296ms total)
T0B58 017:937 JLINK_ReadMem (0x00001868, 0x003C Bytes, ...) -- Read from DA cache (60 bytes @ 0x00001868) -- Data:  01 F0 28 FD 06 04 0A 10 16 1C 23 28 5C 48 C0 6B ...  returns 0x00 (0000ms, 1296ms total)
T0D08 018:368 JLINK_Step() -- Read from DA cache (2 bytes @ 0x00001866) -- Not simulated -- CPU_WriteMem(4 bytes @ 0xE0002008) -- CPU_WriteMem(4 bytes @ 0xE000200C) -- CPU_WriteMem(4 bytes @ 0xE0002010) -- CPU_WriteMem(4 bytes @ 0xE0002014)  returns 0x00 (0010ms, 1296ms total)
T0D08 018:378 JLINK_ReadReg(R15)  returns 0x00001868 (0000ms, 1306ms total)
T0D08 018:378 JLINK_ReadReg(XPSR)  returns 0x41000000 (0000ms, 1306ms total)
T0D08 018:378 JLINK_SetBPEx(Addr = 0x0000186C, Type = 0xFFFFFFF2)  returns 0x00000009 (0000ms, 1306ms total)
T0D08 018:378 JLINK_SetBPEx(Addr = 0x000011A4, Type = 0xFFFFFFF2)  returns 0x0000000A (0000ms, 1306ms total)
T0D08 018:378 JLINK_SetBPEx(Addr = 0x00001864, Type = 0xFFFFFFF2)  returns 0x0000000B (0000ms, 1306ms total)
T0D08 018:378 JLINK_Go() -- CPU_WriteMem(4 bytes @ 0xE0002008) -- CPU_WriteMem(4 bytes @ 0xE000200C) -- CPU_WriteMem(4 bytes @ 0xE0002010) -- CPU_WriteMem(4 bytes @ 0xE0002014) (0005ms, 1306ms total)
T0D08 018:484 JLINK_IsHalted()  returns TRUE (0004ms, 1311ms total)
T0D08 018:488 JLINK_Halt()  returns 0x00 (0000ms, 1311ms total)
T0D08 018:488 JLINK_IsHalted()  returns TRUE (0000ms, 1311ms total)
T0D08 018:488 JLINK_IsHalted()  returns TRUE (0000ms, 1311ms total)
T0D08 018:488 JLINK_IsHalted()  returns TRUE (0000ms, 1311ms total)
T0D08 018:488 JLINK_ReadReg(R15)  returns 0x00001864 (0000ms, 1311ms total)
T0D08 018:488 JLINK_ReadReg(XPSR)  returns 0x81000000 (0000ms, 1311ms total)
T0D08 018:488 JLINK_ClrBPEx(BPHandle = 0x00000009)  returns 0x00 (0000ms, 1311ms total)
T0D08 018:488 JLINK_ClrBPEx(BPHandle = 0x0000000A)  returns 0x00 (0000ms, 1311ms total)
T0D08 018:488 JLINK_ClrBPEx(BPHandle = 0x0000000B)  returns 0x00 (0000ms, 1311ms total)
T0D08 018:488 JLINK_ReadMemU32(0xE000ED30, 0x0001 Items, ...) -- CPU_ReadMem(4 bytes @ 0xE000ED30) -- Data:  0F 00 00 00  returns 0x01 (0002ms, 1311ms total)
T0D08 018:490 JLINK_ReadMemU32(0xE0001028, 0x0001 Items, ...) -- CPU_ReadMem(4 bytes @ 0xE0001028) -- Data:  00 00 00 00  returns 0x01 (0002ms, 1313ms total)
T0D08 018:492 JLINK_ReadMemU32(0xE0001038, 0x0001 Items, ...) -- CPU_ReadMem(4 bytes @ 0xE0001038) -- Data:  00 00 00 00  returns 0x01 (0002ms, 1315ms total)
T0D08 018:494 JLINK_ReadReg(R0)  returns 0x00000002 (0000ms, 1317ms total)
T0D08 018:494 JLINK_ReadReg(R1)  returns 0x1000004A (0000ms, 1317ms total)
T0D08 018:494 JLINK_ReadReg(R2)  returns 0x00000005 (0000ms, 1317ms total)
T0D08 018:494 JLINK_ReadReg(R3)  returns 0x00001881 (0000ms, 1317ms total)
T0D08 018:494 JLINK_ReadReg(R4)  returns 0x00000002 (0000ms, 1317ms total)
T0D08 018:494 JLINK_ReadReg(R5)  returns 0x00000020 (0000ms, 1317ms total)
T0D08 018:494 JLINK_ReadReg(R6)  returns 0x00000000 (0000ms, 1317ms total)
T0D08 018:494 JLINK_ReadReg(R7)  returns 0x00000000 (0000ms, 1317ms total)
T0D08 018:494 JLINK_ReadReg(R8)  returns 0x00000000 (0000ms, 1317ms total)
T0D08 018:494 JLINK_ReadReg(R9)  returns 0x1000017C (0000ms, 1317ms total)
T0D08 018:494 JLINK_ReadReg(R10)  returns 0x000033B8 (0000ms, 1317ms total)
T0D08 018:494 JLINK_ReadReg(R11)  returns 0x000033B8 (0000ms, 1317ms total)
T0D08 018:494 JLINK_ReadReg(R12)  returns 0x00000000 (0000ms, 1317ms total)
T0D08 018:494 JLINK_ReadReg(R13)  returns 0x10001A98 (0000ms, 1317ms total)
T0D08 018:494 JLINK_ReadReg(R14)  returns 0x0000186D (0000ms, 1317ms total)
T0D08 018:494 JLINK_ReadReg(R15)  returns 0x00001864 (0000ms, 1317ms total)
T0D08 018:494 JLINK_ReadReg(XPSR)  returns 0x81000000 (0000ms, 1317ms total)
T0D08 018:494 JLINK_ReadReg(MSP)  returns 0x10001A98 (0000ms, 1317ms total)
T0D08 018:494 JLINK_ReadReg(PSP)  returns 0x10000800 (0000ms, 1317ms total)
T0D08 018:494 JLINK_ReadReg(CFBP)  returns 0x00000000 (0000ms, 1317ms total)
T0D08 018:494 JLINK_ReadMem (0x10001AA4, 0x0004 Bytes, ...) -- CPU_ReadMem(4 bytes @ 0x10001AA4) -- Data:  6B 1F 00 00  returns 0x00 (0002ms, 1317ms total)
T0B58 018:496 JLINK_ReadMem (0x10000049, 0x0001 Bytes, ...) -- CPU_ReadMem(1 bytes @ 0x10000049) -- Data:  FF  returns 0x00 (0002ms, 1319ms total)
T0B58 018:554 JLINK_ReadMem (0x00001864, 0x003C Bytes, ...) -- CPU_ReadMem(128 bytes @ 0x00001840) -- Updating DA cache (128 bytes @ 0x00001840) -- Read from DA cache (60 bytes @ 0x00001864) -- Data:  00 26 23 46 01 F0 28 FD 06 04 0A 10 16 1C 23 28 ...  returns 0x00 (0004ms, 1321ms total)
T0D08 020:024 JLINK_Step() -- Read from DA cache (2 bytes @ 0x00001864) -- Simulated  returns 0x00 (0004ms, 1325ms total)
T0D08 020:028 JLINK_ReadReg(R15)  returns 0x00001866 (0000ms, 1329ms total)
T0D08 020:028 JLINK_ReadReg(XPSR)  returns 0x41000000 (0000ms, 1329ms total)
T0D08 020:028 JLINK_ReadReg(R0)  returns 0x00000002 (0000ms, 1329ms total)
T0D08 020:028 JLINK_ReadReg(R1)  returns 0x1000004A (0000ms, 1329ms total)
T0D08 020:028 JLINK_ReadReg(R2)  returns 0x00000005 (0000ms, 1329ms total)
T0D08 020:028 JLINK_ReadReg(R3)  returns 0x00001881 (0000ms, 1329ms total)
T0D08 020:028 JLINK_ReadReg(R4)  returns 0x00000002 (0000ms, 1329ms total)
T0D08 020:028 JLINK_ReadReg(R5)  returns 0x00000020 (0000ms, 1329ms total)
T0D08 020:028 JLINK_ReadReg(R6)  returns 0x00000000 (0000ms, 1329ms total)
T0D08 020:028 JLINK_ReadReg(R7)  returns 0x00000000 (0000ms, 1329ms total)
T0D08 020:028 JLINK_ReadReg(R8)  returns 0x00000000 (0000ms, 1329ms total)
T0D08 020:028 JLINK_ReadReg(R9)  returns 0x1000017C (0000ms, 1329ms total)
T0D08 020:028 JLINK_ReadReg(R10)  returns 0x000033B8 (0000ms, 1329ms total)
T0D08 020:028 JLINK_ReadReg(R11)  returns 0x000033B8 (0000ms, 1329ms total)
T0D08 020:028 JLINK_ReadReg(R12)  returns 0x00000000 (0000ms, 1329ms total)
T0D08 020:028 JLINK_ReadReg(R13)  returns 0x10001A98 (0000ms, 1329ms total)
T0D08 020:028 JLINK_ReadReg(R14)  returns 0x0000186D (0000ms, 1329ms total)
T0D08 020:028 JLINK_ReadReg(R15)  returns 0x00001866 (0000ms, 1329ms total)
T0D08 020:028 JLINK_ReadReg(XPSR)  returns 0x41000000 (0000ms, 1329ms total)
T0D08 020:028 JLINK_ReadReg(MSP)  returns 0x10001A98 (0000ms, 1329ms total)
T0D08 020:028 JLINK_ReadReg(PSP)  returns 0x10000800 (0000ms, 1329ms total)
T0D08 020:028 JLINK_ReadReg(CFBP)  returns 0x00000000 (0000ms, 1329ms total)
T0D08 020:028 JLINK_ReadMem (0x10001AA4, 0x0004 Bytes, ...) -- CPU_ReadMem(4 bytes @ 0x10001AA4) -- Data:  6B 1F 00 00  returns 0x00 (0003ms, 1329ms total)
T0B58 020:031 JLINK_ReadMem (0x10000049, 0x0001 Bytes, ...) -- CPU_ReadMem(1 bytes @ 0x10000049) -- Data:  FF  returns 0x00 (0002ms, 1332ms total)
T0B58 020:078 JLINK_ReadMem (0x00001866, 0x0002 Bytes, ...) -- Read from DA cache (2 bytes @ 0x00001866) -- Data:  23 46  returns 0x00 (0000ms, 1334ms total)
T0B58 020:078 JLINK_ReadMem (0x00001868, 0x003C Bytes, ...) -- Read from DA cache (60 bytes @ 0x00001868) -- Data:  01 F0 28 FD 06 04 0A 10 16 1C 23 28 5C 48 C0 6B ...  returns 0x00 (0000ms, 1334ms total)
T0D08 020:617 JLINK_Step() -- Read from DA cache (2 bytes @ 0x00001866) -- Not simulated -- CPU_WriteMem(4 bytes @ 0xE0002008) -- CPU_WriteMem(4 bytes @ 0xE000200C) -- CPU_WriteMem(4 bytes @ 0xE0002010) -- CPU_WriteMem(4 bytes @ 0xE0002014)  returns 0x00 (0011ms, 1334ms total)
T0D08 020:628 JLINK_ReadReg(R15)  returns 0x00001868 (0000ms, 1345ms total)
T0D08 020:628 JLINK_ReadReg(XPSR)  returns 0x41000000 (0000ms, 1345ms total)
T0D08 020:628 JLINK_SetBPEx(Addr = 0x0000186C, Type = 0xFFFFFFF2)  returns 0x0000000C (0000ms, 1345ms total)
T0D08 020:628 JLINK_SetBPEx(Addr = 0x000011A4, Type = 0xFFFFFFF2)  returns 0x0000000D (0000ms, 1345ms total)
T0D08 020:628 JLINK_SetBPEx(Addr = 0x00001864, Type = 0xFFFFFFF2)  returns 0x0000000E (0000ms, 1345ms total)
T0D08 020:628 JLINK_Go() -- CPU_WriteMem(4 bytes @ 0xE0002008) -- CPU_WriteMem(4 bytes @ 0xE000200C) -- CPU_WriteMem(4 bytes @ 0xE0002010) -- CPU_WriteMem(4 bytes @ 0xE0002014) (0005ms, 1345ms total)
T0D08 020:734 JLINK_IsHalted()  returns TRUE (0004ms, 1350ms total)
T0D08 020:739 JLINK_Halt()  returns 0x00 (0000ms, 1350ms total)
T0D08 020:739 JLINK_IsHalted()  returns TRUE (0000ms, 1350ms total)
T0D08 020:739 JLINK_IsHalted()  returns TRUE (0000ms, 1350ms total)
T0D08 020:739 JLINK_IsHalted()  returns TRUE (0000ms, 1350ms total)
T0D08 020:739 JLINK_ReadReg(R15)  returns 0x00001864 (0000ms, 1350ms total)
T0D08 020:739 JLINK_ReadReg(XPSR)  returns 0x81000000 (0000ms, 1350ms total)
T0D08 020:739 JLINK_ClrBPEx(BPHandle = 0x0000000C)  returns 0x00 (0000ms, 1350ms total)
T0D08 020:739 JLINK_ClrBPEx(BPHandle = 0x0000000D)  returns 0x00 (0000ms, 1350ms total)
T0D08 020:739 JLINK_ClrBPEx(BPHandle = 0x0000000E)  returns 0x00 (0000ms, 1350ms total)
T0D08 020:739 JLINK_ReadMemU32(0xE000ED30, 0x0001 Items, ...) -- CPU_ReadMem(4 bytes @ 0xE000ED30) -- Data:  0F 00 00 00  returns 0x01 (0002ms, 1350ms total)
T0D08 020:741 JLINK_ReadMemU32(0xE0001028, 0x0001 Items, ...) -- CPU_ReadMem(4 bytes @ 0xE0001028) -- Data:  00 00 00 00  returns 0x01 (0002ms, 1352ms total)
T0D08 020:743 JLINK_ReadMemU32(0xE0001038, 0x0001 Items, ...) -- CPU_ReadMem(4 bytes @ 0xE0001038) -- Data:  00 00 00 00  returns 0x01 (0001ms, 1354ms total)
T0D08 020:744 JLINK_ReadReg(R0)  returns 0x00000003 (0000ms, 1355ms total)
T0D08 020:744 JLINK_ReadReg(R1)  returns 0x1000004A (0000ms, 1355ms total)
T0D08 020:744 JLINK_ReadReg(R2)  returns 0x00000005 (0000ms, 1355ms total)
T0D08 020:744 JLINK_ReadReg(R3)  returns 0x0000188D (0000ms, 1355ms total)
T0D08 020:744 JLINK_ReadReg(R4)  returns 0x00000003 (0000ms, 1355ms total)
T0D08 020:744 JLINK_ReadReg(R5)  returns 0x00000040 (0000ms, 1355ms total)
T0D08 020:744 JLINK_ReadReg(R6)  returns 0x00000000 (0000ms, 1355ms total)
T0D08 020:744 JLINK_ReadReg(R7)  returns 0x00000000 (0000ms, 1355ms total)
T0D08 020:744 JLINK_ReadReg(R8)  returns 0x00000000 (0000ms, 1355ms total)
T0D08 020:744 JLINK_ReadReg(R9)  returns 0x1000017C (0000ms, 1355ms total)
T0D08 020:744 JLINK_ReadReg(R10)  returns 0x000033B8 (0000ms, 1355ms total)
T0D08 020:744 JLINK_ReadReg(R11)  returns 0x000033B8 (0000ms, 1355ms total)
T0D08 020:744 JLINK_ReadReg(R12)  returns 0x00000000 (0000ms, 1355ms total)
T0D08 020:744 JLINK_ReadReg(R13)  returns 0x10001A98 (0000ms, 1355ms total)
T0D08 020:744 JLINK_ReadReg(R14)  returns 0x0000186D (0000ms, 1355ms total)
T0D08 020:744 JLINK_ReadReg(R15)  returns 0x00001864 (0000ms, 1355ms total)
T0D08 020:744 JLINK_ReadReg(XPSR)  returns 0x81000000 (0000ms, 1355ms total)
T0D08 020:744 JLINK_ReadReg(MSP)  returns 0x10001A98 (0000ms, 1355ms total)
T0D08 020:744 JLINK_ReadReg(PSP)  returns 0x10000800 (0000ms, 1355ms total)
T0D08 020:744 JLINK_ReadReg(CFBP)  returns 0x00000000 (0000ms, 1355ms total)
T0D08 020:744 JLINK_ReadMem (0x10001AA4, 0x0004 Bytes, ...) -- CPU_ReadMem(4 bytes @ 0x10001AA4) -- Data:  6B 1F 00 00  returns 0x00 (0003ms, 1355ms total)
T0B58 020:747 JLINK_ReadMem (0x10000049, 0x0001 Bytes, ...) -- CPU_ReadMem(1 bytes @ 0x10000049) -- Data:  FF  returns 0x00 (0002ms, 1358ms total)
T0B58 020:794 JLINK_ReadMem (0x00001864, 0x003C Bytes, ...) -- CPU_ReadMem(128 bytes @ 0x00001840) -- Updating DA cache (128 bytes @ 0x00001840) -- Read from DA cache (60 bytes @ 0x00001864) -- Data:  00 26 23 46 01 F0 28 FD 06 04 0A 10 16 1C 23 28 ...  returns 0x00 (0003ms, 1360ms total)
T0D08 021:345 JLINK_Step() -- Read from DA cache (2 bytes @ 0x00001864) -- Simulated  returns 0x00 (0002ms, 1363ms total)
T0D08 021:347 JLINK_ReadReg(R15)  returns 0x00001866 (0000ms, 1365ms total)
T0D08 021:347 JLINK_ReadReg(XPSR)  returns 0x41000000 (0000ms, 1365ms total)
T0D08 021:347 JLINK_ReadReg(R0)  returns 0x00000003 (0000ms, 1365ms total)
T0D08 021:347 JLINK_ReadReg(R1)  returns 0x1000004A (0000ms, 1365ms total)
T0D08 021:347 JLINK_ReadReg(R2)  returns 0x00000005 (0000ms, 1365ms total)
T0D08 021:347 JLINK_ReadReg(R3)  returns 0x0000188D (0000ms, 1365ms total)
T0D08 021:347 JLINK_ReadReg(R4)  returns 0x00000003 (0000ms, 1365ms total)
T0D08 021:347 JLINK_ReadReg(R5)  returns 0x00000040 (0000ms, 1365ms total)
T0D08 021:347 JLINK_ReadReg(R6)  returns 0x00000000 (0000ms, 1365ms total)
T0D08 021:347 JLINK_ReadReg(R7)  returns 0x00000000 (0000ms, 1365ms total)
T0D08 021:347 JLINK_ReadReg(R8)  returns 0x00000000 (0000ms, 1365ms total)
T0D08 021:347 JLINK_ReadReg(R9)  returns 0x1000017C (0000ms, 1365ms total)
T0D08 021:347 JLINK_ReadReg(R10)  returns 0x000033B8 (0000ms, 1365ms total)
T0D08 021:347 JLINK_ReadReg(R11)  returns 0x000033B8 (0000ms, 1365ms total)
T0D08 021:347 JLINK_ReadReg(R12)  returns 0x00000000 (0000ms, 1365ms total)
T0D08 021:347 JLINK_ReadReg(R13)  returns 0x10001A98 (0000ms, 1365ms total)
T0D08 021:347 JLINK_ReadReg(R14)  returns 0x0000186D (0000ms, 1365ms total)
T0D08 021:347 JLINK_ReadReg(R15)  returns 0x00001866 (0001ms, 1365ms total)
T0D08 021:348 JLINK_ReadReg(XPSR)  returns 0x41000000 (0000ms, 1366ms total)
T0D08 021:348 JLINK_ReadReg(MSP)  returns 0x10001A98 (0000ms, 1366ms total)
T0D08 021:348 JLINK_ReadReg(PSP)  returns 0x10000800 (0000ms, 1366ms total)
T0D08 021:348 JLINK_ReadReg(CFBP)  returns 0x00000000 (0000ms, 1366ms total)
T0D08 021:348 JLINK_ReadMem (0x10001AA4, 0x0004 Bytes, ...) -- CPU_ReadMem(4 bytes @ 0x10001AA4) -- Data:  6B 1F 00 00  returns 0x00 (0002ms, 1366ms total)
T0B58 021:350 JLINK_ReadMem (0x10000049, 0x0001 Bytes, ...) -- CPU_ReadMem(1 bytes @ 0x10000049) -- Data:  FF  returns 0x00 (0002ms, 1368ms total)
T0B58 021:397 JLINK_ReadMem (0x00001866, 0x0002 Bytes, ...) -- Read from DA cache (2 bytes @ 0x00001866) -- Data:  23 46  returns 0x00 (0000ms, 1370ms total)
T0B58 021:397 JLINK_ReadMem (0x00001868, 0x003C Bytes, ...) -- Read from DA cache (60 bytes @ 0x00001868) -- Data:  01 F0 28 FD 06 04 0A 10 16 1C 23 28 5C 48 C0 6B ...  returns 0x00 (0001ms, 1370ms total)
T0D08 021:798 JLINK_Step() -- Read from DA cache (2 bytes @ 0x00001866) -- Not simulated -- CPU_WriteMem(4 bytes @ 0xE0002008) -- CPU_WriteMem(4 bytes @ 0xE000200C) -- CPU_WriteMem(4 bytes @ 0xE0002010) -- CPU_WriteMem(4 bytes @ 0xE0002014)  returns 0x00 (0011ms, 1371ms total)
T0D08 021:809 JLINK_ReadReg(R15)  returns 0x00001868 (0000ms, 1382ms total)
T0D08 021:809 JLINK_ReadReg(XPSR)  returns 0x41000000 (0000ms, 1382ms total)
T0D08 021:809 JLINK_SetBPEx(Addr = 0x0000186C, Type = 0xFFFFFFF2)  returns 0x0000000F (0000ms, 1382ms total)
T0D08 021:809 JLINK_SetBPEx(Addr = 0x000011A4, Type = 0xFFFFFFF2)  returns 0x00000010 (0000ms, 1382ms total)
T0D08 021:809 JLINK_SetBPEx(Addr = 0x00001864, Type = 0xFFFFFFF2)  returns 0x00000011 (0000ms, 1382ms total)
T0D08 021:809 JLINK_Go() -- CPU_WriteMem(4 bytes @ 0xE0002008) -- CPU_WriteMem(4 bytes @ 0xE000200C) -- CPU_WriteMem(4 bytes @ 0xE0002010) -- CPU_WriteMem(4 bytes @ 0xE0002014) (0005ms, 1382ms total)
T0D08 021:914 JLINK_IsHalted()  returns TRUE (0005ms, 1387ms total)
T0D08 021:919 JLINK_Halt()  returns 0x00 (0000ms, 1387ms total)
T0D08 021:919 JLINK_IsHalted()  returns TRUE (0000ms, 1387ms total)
T0D08 021:919 JLINK_IsHalted()  returns TRUE (0000ms, 1387ms total)
T0D08 021:919 JLINK_IsHalted()  returns TRUE (0000ms, 1387ms total)
T0D08 021:919 JLINK_ReadReg(R15)  returns 0x00001864 (0000ms, 1387ms total)
T0D08 021:919 JLINK_ReadReg(XPSR)  returns 0x81000000 (0000ms, 1387ms total)
T0D08 021:919 JLINK_ClrBPEx(BPHandle = 0x0000000F)  returns 0x00 (0000ms, 1387ms total)
T0D08 021:919 JLINK_ClrBPEx(BPHandle = 0x00000010)  returns 0x00 (0000ms, 1387ms total)
T0D08 021:919 JLINK_ClrBPEx(BPHandle = 0x00000011)  returns 0x00 (0000ms, 1387ms total)
T0D08 021:919 JLINK_ReadMemU32(0xE000ED30, 0x0001 Items, ...) -- CPU_ReadMem(4 bytes @ 0xE000ED30) -- Data:  0F 00 00 00  returns 0x01 (0002ms, 1387ms total)
T0D08 021:921 JLINK_ReadMemU32(0xE0001028, 0x0001 Items, ...) -- CPU_ReadMem(4 bytes @ 0xE0001028) -- Data:  00 00 00 00  returns 0x01 (0002ms, 1389ms total)
T0D08 021:923 JLINK_ReadMemU32(0xE0001038, 0x0001 Items, ...) -- CPU_ReadMem(4 bytes @ 0xE0001038) -- Data:  00 00 00 00  returns 0x01 (0002ms, 1391ms total)
T0D08 021:925 JLINK_ReadReg(R0)  returns 0x00000004 (0000ms, 1393ms total)
T0D08 021:925 JLINK_ReadReg(R1)  returns 0x1000004A (0000ms, 1393ms total)
T0D08 021:925 JLINK_ReadReg(R2)  returns 0x00000005 (0000ms, 1393ms total)
T0D08 021:925 JLINK_ReadReg(R3)  returns 0x00001899 (0000ms, 1393ms total)
T0D08 021:925 JLINK_ReadReg(R4)  returns 0x00000004 (0000ms, 1393ms total)
T0D08 021:925 JLINK_ReadReg(R5)  returns 0x00000080 (0000ms, 1393ms total)
T0D08 021:925 JLINK_ReadReg(R6)  returns 0x00000000 (0000ms, 1393ms total)
T0D08 021:925 JLINK_ReadReg(R7)  returns 0x00000000 (0000ms, 1393ms total)
T0D08 021:925 JLINK_ReadReg(R8)  returns 0x00000000 (0000ms, 1393ms total)
T0D08 021:925 JLINK_ReadReg(R9)  returns 0x1000017C (0000ms, 1393ms total)
T0D08 021:925 JLINK_ReadReg(R10)  returns 0x000033B8 (0000ms, 1393ms total)
T0D08 021:925 JLINK_ReadReg(R11)  returns 0x000033B8 (0000ms, 1393ms total)
T0D08 021:925 JLINK_ReadReg(R12)  returns 0x00000000 (0000ms, 1393ms total)
T0D08 021:925 JLINK_ReadReg(R13)  returns 0x10001A98 (0000ms, 1393ms total)
T0D08 021:925 JLINK_ReadReg(R14)  returns 0x0000186D (0000ms, 1393ms total)
T0D08 021:925 JLINK_ReadReg(R15)  returns 0x00001864 (0000ms, 1393ms total)
T0D08 021:925 JLINK_ReadReg(XPSR)  returns 0x81000000 (0000ms, 1393ms total)
T0D08 021:925 JLINK_ReadReg(MSP)  returns 0x10001A98 (0000ms, 1393ms total)
T0D08 021:925 JLINK_ReadReg(PSP)  returns 0x10000800 (0000ms, 1393ms total)
T0D08 021:925 JLINK_ReadReg(CFBP)  returns 0x00000000 (0000ms, 1393ms total)
T0D08 021:925 JLINK_ReadMem (0x10001AA4, 0x0004 Bytes, ...) -- CPU_ReadMem(4 bytes @ 0x10001AA4) -- Data:  6B 1F 00 00  returns 0x00 (0002ms, 1393ms total)
T0B58 021:927 JLINK_ReadMem (0x10000049, 0x0001 Bytes, ...) -- CPU_ReadMem(1 bytes @ 0x10000049) -- Data:  FF  returns 0x00 (0003ms, 1395ms total)
T0B58 021:976 JLINK_ReadMem (0x00001864, 0x003C Bytes, ...) -- CPU_ReadMem(128 bytes @ 0x00001840) -- Updating DA cache (128 bytes @ 0x00001840) -- Read from DA cache (60 bytes @ 0x00001864) -- Data:  00 26 23 46 01 F0 28 FD 06 04 0A 10 16 1C 23 28 ...  returns 0x00 (0003ms, 1398ms total)
T0D08 022:427 JLINK_Step() -- Read from DA cache (2 bytes @ 0x00001864) -- Simulated  returns 0x00 (0002ms, 1401ms total)
T0D08 022:429 JLINK_ReadReg(R15)  returns 0x00001866 (0000ms, 1403ms total)
T0D08 022:429 JLINK_ReadReg(XPSR)  returns 0x41000000 (0000ms, 1403ms total)
T0D08 022:429 JLINK_ReadReg(R0)  returns 0x00000004 (0000ms, 1403ms total)
T0D08 022:429 JLINK_ReadReg(R1)  returns 0x1000004A (0000ms, 1403ms total)
T0D08 022:429 JLINK_ReadReg(R2)  returns 0x00000005 (0000ms, 1403ms total)
T0D08 022:429 JLINK_ReadReg(R3)  returns 0x00001899 (0000ms, 1403ms total)
T0D08 022:429 JLINK_ReadReg(R4)  returns 0x00000004 (0000ms, 1403ms total)
T0D08 022:429 JLINK_ReadReg(R5)  returns 0x00000080 (0000ms, 1403ms total)
T0D08 022:429 JLINK_ReadReg(R6)  returns 0x00000000 (0000ms, 1403ms total)
T0D08 022:429 JLINK_ReadReg(R7)  returns 0x00000000 (0000ms, 1403ms total)
T0D08 022:429 JLINK_ReadReg(R8)  returns 0x00000000 (0000ms, 1403ms total)
T0D08 022:429 JLINK_ReadReg(R9)  returns 0x1000017C (0000ms, 1403ms total)
T0D08 022:429 JLINK_ReadReg(R10)  returns 0x000033B8 (0000ms, 1403ms total)
T0D08 022:429 JLINK_ReadReg(R11)  returns 0x000033B8 (0000ms, 1403ms total)
T0D08 022:429 JLINK_ReadReg(R12)  returns 0x00000000 (0000ms, 1403ms total)
T0D08 022:429 JLINK_ReadReg(R13)  returns 0x10001A98 (0000ms, 1403ms total)
T0D08 022:429 JLINK_ReadReg(R14)  returns 0x0000186D (0000ms, 1403ms total)
T0D08 022:429 JLINK_ReadReg(R15)  returns 0x00001866 (0000ms, 1403ms total)
T0D08 022:429 JLINK_ReadReg(XPSR)  returns 0x41000000 (0000ms, 1403ms total)
T0D08 022:429 JLINK_ReadReg(MSP)  returns 0x10001A98 (0000ms, 1403ms total)
T0D08 022:429 JLINK_ReadReg(PSP)  returns 0x10000800 (0000ms, 1403ms total)
T0D08 022:429 JLINK_ReadReg(CFBP)  returns 0x00000000 (0000ms, 1403ms total)
T0D08 022:429 JLINK_ReadMem (0x10001AA4, 0x0004 Bytes, ...) -- CPU_ReadMem(4 bytes @ 0x10001AA4) -- Data:  6B 1F 00 00  returns 0x00 (0003ms, 1403ms total)
T0B58 022:432 JLINK_ReadMem (0x10000049, 0x0001 Bytes, ...) -- CPU_ReadMem(1 bytes @ 0x10000049) -- Data:  FF  returns 0x00 (0002ms, 1406ms total)
T0B58 022:491 JLINK_ReadMem (0x00001866, 0x0002 Bytes, ...) -- Read from DA cache (2 bytes @ 0x00001866) -- Data:  23 46  returns 0x00 (0000ms, 1408ms total)
T0B58 022:491 JLINK_ReadMem (0x00001868, 0x003C Bytes, ...) -- Read from DA cache (60 bytes @ 0x00001868) -- Data:  01 F0 28 FD 06 04 0A 10 16 1C 23 28 5C 48 C0 6B ...  returns 0x00 (0000ms, 1408ms total)
T0D08 022:898 JLINK_Step() -- Read from DA cache (2 bytes @ 0x00001866) -- Not simulated -- CPU_WriteMem(4 bytes @ 0xE0002008) -- CPU_WriteMem(4 bytes @ 0xE000200C) -- CPU_WriteMem(4 bytes @ 0xE0002010) -- CPU_WriteMem(4 bytes @ 0xE0002014)  returns 0x00 (0011ms, 1408ms total)
T0D08 022:909 JLINK_ReadReg(R15)  returns 0x00001868 (0000ms, 1419ms total)
T0D08 022:909 JLINK_ReadReg(XPSR)  returns 0x41000000 (0000ms, 1419ms total)
T0D08 022:909 JLINK_SetBPEx(Addr = 0x0000186C, Type = 0xFFFFFFF2)  returns 0x00000012 (0000ms, 1419ms total)
T0D08 022:909 JLINK_SetBPEx(Addr = 0x000011A4, Type = 0xFFFFFFF2)  returns 0x00000013 (0000ms, 1419ms total)
T0D08 022:909 JLINK_SetBPEx(Addr = 0x00001864, Type = 0xFFFFFFF2)  returns 0x00000014 (0000ms, 1419ms total)
T0D08 022:909 JLINK_Go() -- CPU_WriteMem(4 bytes @ 0xE0002008) -- CPU_WriteMem(4 bytes @ 0xE000200C) -- CPU_WriteMem(4 bytes @ 0xE0002010) -- CPU_WriteMem(4 bytes @ 0xE0002014) (0004ms, 1419ms total)
T0D08 023:014 JLINK_IsHalted()  returns TRUE (0004ms, 1423ms total)
T0D08 023:018 JLINK_Halt()  returns 0x00 (0000ms, 1423ms total)
T0D08 023:018 JLINK_IsHalted()  returns TRUE (0000ms, 1423ms total)
T0D08 023:018 JLINK_IsHalted()  returns TRUE (0000ms, 1423ms total)
T0D08 023:018 JLINK_IsHalted()  returns TRUE (0000ms, 1423ms total)
T0D08 023:018 JLINK_ReadReg(R15)  returns 0x00001864 (0000ms, 1423ms total)
T0D08 023:018 JLINK_ReadReg(XPSR)  returns 0x81000000 (0000ms, 1423ms total)
T0D08 023:018 JLINK_ClrBPEx(BPHandle = 0x00000012)  returns 0x00 (0000ms, 1423ms total)
T0D08 023:018 JLINK_ClrBPEx(BPHandle = 0x00000013)  returns 0x00 (0000ms, 1423ms total)
T0D08 023:018 JLINK_ClrBPEx(BPHandle = 0x00000014)  returns 0x00 (0000ms, 1423ms total)
T0D08 023:018 JLINK_ReadMemU32(0xE000ED30, 0x0001 Items, ...) -- CPU_ReadMem(4 bytes @ 0xE000ED30) -- Data:  0F 00 00 00  returns 0x01 (0002ms, 1423ms total)
T0D08 023:020 JLINK_ReadMemU32(0xE0001028, 0x0001 Items, ...) -- CPU_ReadMem(4 bytes @ 0xE0001028) -- Data:  00 00 00 00  returns 0x01 (0002ms, 1425ms total)
T0D08 023:022 JLINK_ReadMemU32(0xE0001038, 0x0001 Items, ...) -- CPU_ReadMem(4 bytes @ 0xE0001038) -- Data:  00 00 00 00  returns 0x01 (0002ms, 1427ms total)
T0D08 023:024 JLINK_ReadReg(R0)  returns 0x00000005 (0000ms, 1429ms total)
T0D08 023:024 JLINK_ReadReg(R1)  returns 0x1000004A (0000ms, 1429ms total)
T0D08 023:024 JLINK_ReadReg(R2)  returns 0x00000005 (0000ms, 1429ms total)
T0D08 023:024 JLINK_ReadReg(R3)  returns 0x000018A5 (0000ms, 1429ms total)
T0D08 023:024 JLINK_ReadReg(R4)  returns 0x00000005 (0000ms, 1429ms total)
T0D08 023:024 JLINK_ReadReg(R5)  returns 0x00000200 (0000ms, 1429ms total)
T0D08 023:024 JLINK_ReadReg(R6)  returns 0x00000000 (0000ms, 1429ms total)
T0D08 023:024 JLINK_ReadReg(R7)  returns 0x00000000 (0000ms, 1429ms total)
T0D08 023:024 JLINK_ReadReg(R8)  returns 0x00000000 (0000ms, 1429ms total)
T0D08 023:024 JLINK_ReadReg(R9)  returns 0x1000017C (0000ms, 1429ms total)
T0D08 023:024 JLINK_ReadReg(R10)  returns 0x000033B8 (0000ms, 1429ms total)
T0D08 023:024 JLINK_ReadReg(R11)  returns 0x000033B8 (0000ms, 1429ms total)
T0D08 023:024 JLINK_ReadReg(R12)  returns 0x00000000 (0000ms, 1429ms total)
T0D08 023:024 JLINK_ReadReg(R13)  returns 0x10001A98 (0000ms, 1429ms total)
T0D08 023:024 JLINK_ReadReg(R14)  returns 0x0000186D (0000ms, 1429ms total)
T0D08 023:024 JLINK_ReadReg(R15)  returns 0x00001864 (0001ms, 1429ms total)
T0D08 023:025 JLINK_ReadReg(XPSR)  returns 0x81000000 (0000ms, 1430ms total)
T0D08 023:025 JLINK_ReadReg(MSP)  returns 0x10001A98 (0000ms, 1430ms total)
T0D08 023:025 JLINK_ReadReg(PSP)  returns 0x10000800 (0000ms, 1430ms total)
T0D08 023:025 JLINK_ReadReg(CFBP)  returns 0x00000000 (0000ms, 1430ms total)
